
T773C 000:184 SEGGER J-Link V6.00e Log File (0000ms, 0055ms total)
T773C 000:184 DLL Compiled: Aug  4 2016 09:37:38 (0000ms, 0055ms total)
T773C 000:184 Logging started @ 2021-05-25 18:06 (0000ms, 0055ms total)
T773C 000:184 JLINK_SetWarnOutHandler(...) (0000ms, 0055ms total)
T773C 000:184 JLINK_OpenEx(...)
Firmware: J-Link V9 compiled May 17 2019 09:50:41
Hardware: V9.40
S/N: 59408985
Feature(s): RDI, GDB, FlashDL, FlashBP, JFlash  returns O.K. (0046ms, 0101ms total)
T773C 000:230 JLINK_SetErrorOutHandler(...) (0000ms, 0101ms total)
T773C 000:230 JLINK_ExecCommand("ProjectFile = "H:\keil\阿里云\资料\LMT70模块资料V1\LMT70模块资料V1\测试程序\STM32F429+串口显示\STM32F4_LMT70\Project\JLinkSettings.ini"", ...).   returns 0x00 (0129ms, 0230ms total)
T773C 000:359 JLINK_ExecCommand("Device = STM32F429IGTx", ...). Device "STM32F429IG" selected.  returns 0x00 (0001ms, 0231ms total)
T773C 000:360 JLINK_ExecCommand("DisableConnectionTimeout", ...).   returns 0x01 (0000ms, 0231ms total)
T773C 000:360 JLINK_GetHardwareVersion()  returns 0x16F30 (0000ms, 0231ms total)
T773C 000:360 JLINK_GetDLLVersion()  returns 60005 (0000ms, 0231ms total)
T773C 000:360 JLINK_GetFirmwareString(...) (0000ms, 0231ms total)
T773C 000:360 JLINK_GetDLLVersion()  returns 60005 (0001ms, 0232ms total)
T773C 000:361 JLINK_GetCompileDateTime() (0000ms, 0232ms total)
T773C 000:361 JLINK_GetFirmwareString(...) (0000ms, 0232ms total)
T773C 000:361 JLINK_GetHardwareVersion()  returns 0x16F30 (0000ms, 0232ms total)
T773C 000:361 JLINK_TIF_Select(JLINKARM_TIF_JTAG)  returns 0x00 (0001ms, 0233ms total)
T773C 000:362 JLINK_SetSpeed(5000) (0000ms, 0233ms total)
T773C 000:362 JLINK_GetIdData(...) >0x2F8 JTAG>TotalIRLen = 9, IRPrint = 0x0011 >0x30 JTAG> >0x410 JTAG> >0x40 JTAG> >0x40 JTAG> >0x40 JTAG> >0x30 JTAG> >0x40 JTAG> >0x40 JTAG> >0x40 JTAG> >0x40 JTAG> >0x40 JTAG> >0x40 JTAG> >0x40 JTAG> >0x40 JTAG> >0x40 JTAG> >0x40 JTAG> >0x40 JTAG> >0x40 JTAG> >0x40 JTAG> >0x40 JTAG> >0x40 JTAG> >0x40 JTAG> >0x40 JTAG> >0x40 JTAG> >0x40 JTAG> >0x40 JTAG> >0x40 JTAG> >0x40 JTAG> >0x40 JTAG> >0x2F8 JTAG>TotalIRLen = 9, IRPrint = 0x0011 >0x30 JTAG> >0x410 JTAG>
 >0x70 JTAG> >0x50 JTAG> >0x40 JTAG> >0x50 JTAG>AP-IDR: 0x24770011, Type: AHB-AP >0x80 JTAG> >0x40 JTAG> >0x30 JTAG> >0x40 JTAG> >0x40 JTAG> >0x30 JTAG> >0x40 JTAG> >0x50 JTAG>Found Cortex-M4 r0p1, Little endian. -- CPU_ReadMem(4 bytes @ 0xE000EDF0) -- CPU_ReadMem(4 bytes @ 0xE0002000)FPUnit: 6 code (BP) slots and 2 literal slots -- CPU_ReadMem(4 bytes @ 0xE000EDFC) -- CPU_ReadMem(4 bytes @ 0xE0001000) -- CPU_WriteMem(4 bytes @ 0xE0001000) -- CPU_ReadMem(4 bytes @ 0xE000ED88)
 -- CPU_WriteMem(4 bytes @ 0xE000ED88) -- CPU_ReadMem(4 bytes @ 0xE000ED88) -- CPU_WriteMem(4 bytes @ 0xE000ED88)CoreSight components:ROMTbl 0 @ E00FF000 -- CPU_ReadMem(16 bytes @ 0xE00FF000) -- CPU_ReadMem(16 bytes @ 0xE000EFF0) -- CPU_ReadMem(16 bytes @ 0xE000EFE0)ROMTbl 0 [0]: FFF0F000, CID: B105E00D, PID: 000BB00C SCS -- CPU_ReadMem(16 bytes @ 0xE0001FF0) -- CPU_ReadMem(16 bytes @ 0xE0001FE0)ROMTbl 0 [1]: FFF02000, CID: B105E00D, PID: 003BB002 DWT -- CPU_ReadMem(16 bytes @ 0xE0002FF0)
 -- CPU_ReadMem(16 bytes @ 0xE0002FE0)ROMTbl 0 [2]: FFF03000, CID: B105E00D, PID: 002BB003 FPB -- CPU_ReadMem(16 bytes @ 0xE0000FF0) -- CPU_ReadMem(16 bytes @ 0xE0000FE0)ROMTbl 0 [3]: FFF01000, CID: B105E00D, PID: 003BB001 ITM -- CPU_ReadMem(16 bytes @ 0xE00FF010) -- CPU_ReadMem(16 bytes @ 0xE0040FF0) -- CPU_ReadMem(16 bytes @ 0xE0040FE0)ROMTbl 0 [4]: FFF41000, CID: B105900D, PID: 000BB9A1 TPIU -- CPU_ReadMem(16 bytes @ 0xE0041FF0) -- CPU_ReadMem(16 bytes @ 0xE0041FE0)
ROMTbl 0 [5]: FFF42000, CID: B105900D, PID: 000BB925 ETM ScanLen=9 NumDevices=2 aId[0]=0x4BA00477 aIrRead[0]=0 aScanLen[0]=0 aScanRead[0]=0 (0029ms, 0262ms total)
T773C 000:391 JLINK_JTAG_GetDeviceID(DeviceIndex = 0)  returns 0x4BA00477 (0000ms, 0262ms total)
T773C 000:391 JLINK_JTAG_GetDeviceInfo(DeviceIndex = 0)  returns 0x00 (0000ms, 0262ms total)
T773C 000:391 JLINK_JTAG_GetDeviceID(DeviceIndex = 1)  returns 0x6419041 (0000ms, 0262ms total)
T773C 000:391 JLINK_JTAG_GetDeviceInfo(DeviceIndex = 1)  returns 0x00 (0000ms, 0262ms total)
T773C 000:391 JLINK_GetDLLVersion()  returns 60005 (0000ms, 0262ms total)
T773C 000:391 JLINK_CORE_GetFound()  returns 0xE0000FF (0000ms, 0262ms total)
T773C 000:391 JLINK_GetDebugInfo(0x100) -- Value=0xE00FF003  returns 0x00 (0000ms, 0262ms total)
T773C 000:391 JLINK_GetDebugInfo(0x100) -- Value=0xE00FF003  returns 0x00 (0000ms, 0262ms total)
T773C 000:391 JLINK_GetDebugInfo(0x101) -- Value=0xE0041000  returns 0x00 (0000ms, 0262ms total)
T773C 000:391 JLINK_GetDebugInfo(0x102) -- Value=0x00000000  returns 0x00 (0000ms, 0262ms total)
T773C 000:392 JLINK_GetDebugInfo(0x103) -- Value=0xE0040000  returns 0x00 (0000ms, 0263ms total)
T773C 000:392 JLINK_GetDebugInfo(0x104) -- Value=0xE0000000  returns 0x00 (0000ms, 0263ms total)
T773C 000:392 JLINK_GetDebugInfo(0x105) -- Value=0xE0001000  returns 0x00 (0000ms, 0263ms total)
T773C 000:392 JLINK_GetDebugInfo(0x106) -- Value=0xE0002000  returns 0x00 (0000ms, 0263ms total)
T773C 000:392 JLINK_GetDebugInfo(0x107) -- Value=0xE000E000  returns 0x00 (0000ms, 0263ms total)
T773C 000:392 JLINK_GetDebugInfo(0x10C) -- Value=0xE000EDF0  returns 0x00 (0000ms, 0263ms total)
T773C 000:392 JLINK_ReadMemU32(0xE000EF40, 0x0001 Items, ...) -- CPU is running -- CPU_ReadMem(4 bytes @ 0xE000EF40) - Data: 21 00 11 10  returns 0x01 (0001ms, 0264ms total)
T773C 000:393 JLINK_ReadMemU32(0xE000EF44, 0x0001 Items, ...) -- CPU is running -- CPU_ReadMem(4 bytes @ 0xE000EF44) - Data: 11 00 00 11  returns 0x01 (0000ms, 0264ms total)
T773C 000:393 JLINK_ReadMemU32(0xE000ED00, 0x0001 Items, ...) -- CPU is running -- CPU_ReadMem(4 bytes @ 0xE000ED00) - Data: 41 C2 0F 41  returns 0x01 (0001ms, 0265ms total)
T773C 000:394 JLINK_SetResetType(JLINKARM_RESET_TYPE_NORMAL)  returns JLINKARM_RESET_TYPE_NORMAL (0000ms, 0265ms total)
T773C 000:394 JLINK_Reset() -- CPU is running -- CPU_WriteMem(4 bytes @ 0xE000EDF0) -- CPU is running -- CPU_WriteMem(4 bytes @ 0xE000EDFC) -- CPU is running -- CPU_WriteMem(4 bytes @ 0xE000ED0C) -- CPU is running -- CPU_ReadMem(4 bytes @ 0xE000EDF0) -- CPU is running -- CPU_ReadMem(4 bytes @ 0xE000EDF0) -- CPU is running -- CPU_WriteMem(4 bytes @ 0xE000EDF0) -- CPU is running -- CPU_WriteMem(4 bytes @ 0xE000EDFC) -- CPU is running -- CPU_ReadMem(4 bytes @ 0xE000EDF0) >0x80 JTAG> >0x40 JTAG> >0x30 JTAG>
 >0x40 JTAG> >0x50 JTAG> >0x40 JTAG> -- CPU_WriteMem(4 bytes @ 0xE000EDFC) -- CPU_WriteMem(4 bytes @ 0xE0001028) -- CPU_WriteMem(4 bytes @ 0xE0001038) -- CPU_WriteMem(4 bytes @ 0xE0001048) -- CPU_WriteMem(4 bytes @ 0xE0001058) -- CPU_WriteMem(4 bytes @ 0xE0002000) -- CPU_ReadMem(4 bytes @ 0xE000EDFC) -- CPU_ReadMem(4 bytes @ 0xE0001000) (0028ms, 0293ms total)
T773C 000:422 JLINK_ReadReg(R15 (PC))  returns 0x080001C0 (0000ms, 0293ms total)
T773C 000:422 JLINK_ReadReg(XPSR)  returns 0x01000000 (0000ms, 0293ms total)
T773C 000:423 JLINK_Halt()  returns 0x00 (0000ms, 0293ms total)
T773C 000:423 JLINK_IsHalted()  returns TRUE (0000ms, 0293ms total)
T773C 000:423 JLINK_ReadMemU32(0xE000EDF0, 0x0001 Items, ...) -- CPU_ReadMem(4 bytes @ 0xE000EDF0) - Data: 03 00 03 00  returns 0x01 (0001ms, 0294ms total)
T773C 000:424 JLINK_WriteU32(0xE000EDF0, 0xA05F0003) -- CPU_WriteMem(4 bytes @ 0xE000EDF0)  returns 0x00 (0000ms, 0294ms total)
T773C 000:424 JLINK_WriteU32(0xE000EDFC, 0x01000000) -- CPU_WriteMem(4 bytes @ 0xE000EDFC)  returns 0x00 (0001ms, 0295ms total)
T773C 000:425 JLINK_GetHWStatus(...)  returns 0x00 (0001ms, 0296ms total)
T773C 000:426 JLINK_GetNumBPUnits(Type = 0xFFFFFF00)  returns 0x06 (0000ms, 0296ms total)
T773C 000:426 JLINK_GetNumBPUnits(Type = 0xF0)  returns 0x2000 (0000ms, 0296ms total)
T773C 000:426 JLINK_GetNumWPUnits()  returns 0x04 (0001ms, 0297ms total)
T773C 000:427 JLINK_GetSpeed()  returns 0x1388 (0000ms, 0297ms total)
T773C 000:427 JLINK_ReadMemU32(0xE000E004, 0x0001 Items, ...) -- CPU_ReadMem(4 bytes @ 0xE000E004) - Data: 02 00 00 00  returns 0x01 (0001ms, 0298ms total)
T773C 000:428 JLINK_ReadMemU32(0xE000E004, 0x0001 Items, ...) -- CPU_ReadMem(4 bytes @ 0xE000E004) - Data: 02 00 00 00  returns 0x01 (0001ms, 0299ms total)
T773C 000:429 JLINK_WriteMem(0xE0001000, 0x001C Bytes, ...) - Data: 01 00 00 00 00 00 00 00 00 00 00 00 00 00 00 00 ... -- CPU_WriteMem(28 bytes @ 0xE0001000)  returns 0x1C (0002ms, 0301ms total)
T773C 000:431 JLINK_ReadMem (0xE0001000, 0x001C Bytes, ...) -- CPU_ReadMem(28 bytes @ 0xE0001000) - Data: 01 00 00 40 00 00 00 00 00 00 00 00 00 00 00 00 ...  returns 0x00 (0000ms, 0301ms total)
T773C 000:432 JLINK_ReadReg(R15 (PC))  returns 0x080001C0 (0000ms, 0302ms total)
T773C 000:432 JLINK_ReadReg(XPSR)  returns 0x01000000 (0000ms, 0302ms total)
T773C 000:760 JLINK_SetResetType(JLINKARM_RESET_TYPE_NORMAL)  returns JLINKARM_RESET_TYPE_NORMAL (0001ms, 0303ms total)
T773C 000:761 JLINK_Reset() -- CPU_WriteMem(4 bytes @ 0xE000EDF0) -- CPU_WriteMem(4 bytes @ 0xE000EDFC) -- CPU_WriteMem(4 bytes @ 0xE000ED0C) -- CPU_ReadMem(4 bytes @ 0xE000EDF0) -- CPU_ReadMem(4 bytes @ 0xE000EDF0) -- CPU_WriteMem(4 bytes @ 0xE000EDF0) -- CPU_WriteMem(4 bytes @ 0xE000EDFC) -- CPU is running -- CPU_ReadMem(4 bytes @ 0xE000EDF0) >0x80 JTAG> >0x40 JTAG> >0x30 JTAG> >0x40 JTAG> >0x50 JTAG> >0x40 JTAG> -- CPU_WriteMem(4 bytes @ 0xE000EDFC) -- CPU_WriteMem(4 bytes @ 0xE0001028)
 -- CPU_WriteMem(4 bytes @ 0xE0001038) -- CPU_WriteMem(4 bytes @ 0xE0001048) -- CPU_WriteMem(4 bytes @ 0xE0001058) -- CPU_WriteMem(4 bytes @ 0xE0002000) -- CPU_ReadMem(4 bytes @ 0xE000EDFC) -- CPU_ReadMem(4 bytes @ 0xE0001000) (0028ms, 0331ms total)
T773C 000:789 JLINK_ReadReg(R15 (PC))  returns 0x080001C0 (0000ms, 0331ms total)
T773C 000:789 JLINK_ReadReg(XPSR)  returns 0x01000000 (0000ms, 0331ms total)
T773C 000:929 JLINK_ReadMemU32(0xE0001004, 0x0001 Items, ...) -- CPU_ReadMem(4 bytes @ 0xE0001004) - Data: 2E 1D 00 00  returns 0x01 (0001ms, 0332ms total)
T773C 001:741 JLINK_ReadMem (0x080001C0, 0x003C Bytes, ...) -- CPU_ReadMem(64 bytes @ 0x080001C0) -- Updating C cache (64 bytes @ 0x080001C0) -- Read from C cache (60 bytes @ 0x080001C0) - Data: 06 48 80 47 06 48 00 47 FE E7 FE E7 FE E7 FE E7 ...  returns 0x00 (0001ms, 0333ms total)
T97C4 005:347 JLINK_SetBPEx(Addr = 0x08003488, Type = 0xFFFFFFF2)  returns 0x00000001 (0001ms, 0334ms total)
T97C4 005:348 JLINK_Go() -- CPU_ReadMem(4 bytes @ 0xE0001000) -- CPU_WriteMem(4 bytes @ 0xE0002008) -- CPU_WriteMem(4 bytes @ 0xE000200C) -- CPU_WriteMem(4 bytes @ 0xE0002010) -- CPU_WriteMem(4 bytes @ 0xE0002014) -- CPU_WriteMem(4 bytes @ 0xE0002018) -- CPU_WriteMem(4 bytes @ 0xE000201C) -- CPU_WriteMem(4 bytes @ 0xE0001004) (0003ms, 0337ms total)
T97C4 005:452 JLINK_IsHalted()  returns TRUE (0002ms, 0339ms total)
T97C4 005:454 JLINK_Halt()  returns 0x00 (0000ms, 0337ms total)
T97C4 005:454 JLINK_IsHalted()  returns TRUE (0000ms, 0337ms total)
T97C4 005:454 JLINK_IsHalted()  returns TRUE (0000ms, 0337ms total)
T97C4 005:454 JLINK_IsHalted()  returns TRUE (0000ms, 0337ms total)
T97C4 005:454 JLINK_ReadReg(R15 (PC))  returns 0x08003488 (0000ms, 0337ms total)
T97C4 005:454 JLINK_ReadReg(XPSR)  returns 0x61000000 (0000ms, 0337ms total)
T97C4 005:454 JLINK_ClrBPEx(BPHandle = 0x00000001)  returns 0x00 (0001ms, 0338ms total)
T97C4 005:455 JLINK_ReadMemU32(0xE000ED30, 0x0001 Items, ...) -- CPU_ReadMem(4 bytes @ 0xE000ED30) - Data: 02 00 00 00  returns 0x01 (0000ms, 0338ms total)
T97C4 005:455 JLINK_ReadMemU32(0xE0001028, 0x0001 Items, ...) -- CPU_ReadMem(4 bytes @ 0xE0001028) - Data: 00 00 00 00  returns 0x01 (0001ms, 0339ms total)
T97C4 005:456 JLINK_ReadMemU32(0xE0001038, 0x0001 Items, ...) -- CPU_ReadMem(4 bytes @ 0xE0001038) - Data: 00 02 00 00  returns 0x01 (0000ms, 0339ms total)
T97C4 005:456 JLINK_ReadMemU32(0xE0001048, 0x0001 Items, ...) -- CPU_ReadMem(4 bytes @ 0xE0001048) - Data: 00 00 00 00  returns 0x01 (0001ms, 0340ms total)
T97C4 005:457 JLINK_ReadMemU32(0xE0001058, 0x0001 Items, ...) -- CPU_ReadMem(4 bytes @ 0xE0001058) - Data: 00 00 00 00  returns 0x01 (0000ms, 0340ms total)
T97C4 005:457 JLINK_ReadReg(R0)  returns 0x08003489 (0001ms, 0341ms total)
T97C4 005:458 JLINK_ReadReg(R1)  returns 0x20000CF0 (0000ms, 0341ms total)
T97C4 005:458 JLINK_ReadReg(R2)  returns 0x00000000 (0000ms, 0341ms total)
T97C4 005:458 JLINK_ReadReg(R3)  returns 0x08002B79 (0000ms, 0341ms total)
T97C4 005:458 JLINK_ReadReg(R4)  returns 0x08007D48 (0000ms, 0341ms total)
T97C4 005:458 JLINK_ReadReg(R5)  returns 0x08007D48 (0000ms, 0341ms total)
T97C4 005:458 JLINK_ReadReg(R6)  returns 0x00000000 (0000ms, 0341ms total)
T97C4 005:458 JLINK_ReadReg(R7)  returns 0x00000000 (0000ms, 0341ms total)
T97C4 005:458 JLINK_ReadReg(R8)  returns 0x00000000 (0000ms, 0341ms total)
T97C4 005:458 JLINK_ReadReg(R9)  returns 0x00000000 (0000ms, 0341ms total)
T97C4 005:458 JLINK_ReadReg(R10)  returns 0x00000000 (0000ms, 0341ms total)
T97C4 005:458 JLINK_ReadReg(R11)  returns 0x00000000 (0000ms, 0341ms total)
T97C4 005:458 JLINK_ReadReg(R12)  returns 0x00000000 (0000ms, 0341ms total)
T97C4 005:458 JLINK_ReadReg(R13 (SP))  returns 0x20000CF0 (0000ms, 0341ms total)
T97C4 005:458 JLINK_ReadReg(R14)  returns 0x080007C9 (0000ms, 0341ms total)
T97C4 005:458 JLINK_ReadReg(R15 (PC))  returns 0x08003488 (0000ms, 0341ms total)
T97C4 005:458 JLINK_ReadReg(XPSR)  returns 0x61000000 (0000ms, 0341ms total)
T97C4 005:458 JLINK_ReadReg(MSP)  returns 0x20000CF0 (0000ms, 0341ms total)
T97C4 005:458 JLINK_ReadReg(PSP)  returns 0x00000000 (0001ms, 0342ms total)
T97C4 005:459 JLINK_ReadReg(CFBP)  returns 0x00000000 (0000ms, 0342ms total)
T97C4 005:459 JLINK_ReadReg(FPSCR)  returns 0x00000000 (0003ms, 0345ms total)
T97C4 005:462 JLINK_ReadReg(FPS0)  returns 0x00000000 (0000ms, 0345ms total)
T97C4 005:462 JLINK_ReadReg(FPS1)  returns 0x00000000 (0000ms, 0345ms total)
T97C4 005:462 JLINK_ReadReg(FPS2)  returns 0x00000000 (0000ms, 0345ms total)
T97C4 005:462 JLINK_ReadReg(FPS3)  returns 0x00000000 (0000ms, 0345ms total)
T97C4 005:462 JLINK_ReadReg(FPS4)  returns 0x00000000 (0000ms, 0345ms total)
T97C4 005:462 JLINK_ReadReg(FPS5)  returns 0x00000000 (0000ms, 0345ms total)
T97C4 005:462 JLINK_ReadReg(FPS6)  returns 0x00000000 (0000ms, 0345ms total)
T97C4 005:462 JLINK_ReadReg(FPS7)  returns 0x00000000 (0000ms, 0345ms total)
T97C4 005:462 JLINK_ReadReg(FPS8)  returns 0x00000000 (0000ms, 0345ms total)
T97C4 005:462 JLINK_ReadReg(FPS9)  returns 0x00000000 (0000ms, 0345ms total)
T97C4 005:462 JLINK_ReadReg(FPS10)  returns 0x00000000 (0000ms, 0345ms total)
T97C4 005:462 JLINK_ReadReg(FPS11)  returns 0x00000000 (0000ms, 0345ms total)
T97C4 005:462 JLINK_ReadReg(FPS12)  returns 0x00000000 (0000ms, 0345ms total)
T97C4 005:462 JLINK_ReadReg(FPS13)  returns 0x00000000 (0000ms, 0345ms total)
T97C4 005:462 JLINK_ReadReg(FPS14)  returns 0x00000000 (0000ms, 0345ms total)
T97C4 005:462 JLINK_ReadReg(FPS15)  returns 0x00000000 (0000ms, 0345ms total)
T97C4 005:462 JLINK_ReadReg(FPS16)  returns 0x00000000 (0000ms, 0345ms total)
T97C4 005:463 JLINK_ReadReg(FPS17)  returns 0x00000000 (0000ms, 0346ms total)
T97C4 005:463 JLINK_ReadReg(FPS18)  returns 0x00000000 (0000ms, 0346ms total)
T97C4 005:463 JLINK_ReadReg(FPS19)  returns 0x00000000 (0000ms, 0346ms total)
T97C4 005:463 JLINK_ReadReg(FPS20)  returns 0x00000000 (0000ms, 0346ms total)
T97C4 005:463 JLINK_ReadReg(FPS21)  returns 0x00000000 (0000ms, 0346ms total)
T97C4 005:463 JLINK_ReadReg(FPS22)  returns 0x00000000 (0000ms, 0346ms total)
T97C4 005:463 JLINK_ReadReg(FPS23)  returns 0x00000000 (0000ms, 0346ms total)
T97C4 005:463 JLINK_ReadReg(FPS24)  returns 0x00000000 (0000ms, 0346ms total)
T97C4 005:463 JLINK_ReadReg(FPS25)  returns 0x00000000 (0000ms, 0346ms total)
T97C4 005:463 JLINK_ReadReg(FPS26)  returns 0x00000000 (0000ms, 0346ms total)
T97C4 005:463 JLINK_ReadReg(FPS27)  returns 0x00000000 (0000ms, 0346ms total)
T97C4 005:463 JLINK_ReadReg(FPS28)  returns 0x00000000 (0000ms, 0346ms total)
T97C4 005:463 JLINK_ReadReg(FPS29)  returns 0x00000000 (0000ms, 0346ms total)
T97C4 005:463 JLINK_ReadReg(FPS30)  returns 0x00000000 (0000ms, 0346ms total)
T97C4 005:463 JLINK_ReadReg(FPS31)  returns 0x00000000 (0000ms, 0346ms total)
T773C 005:467 JLINK_ReadMem (0x00000000, 0x0002 Bytes, ...) -- CPU_ReadMem(4 bytes @ 0x00000004) -- CPU_ReadMem(64 bytes @ 0x08000000) -- Updating C cache (64 bytes @ 0x08000000) -- Read from C cache (2 bytes @ 0x08000000) - Data: F0 0C  returns 0x00 (0015ms, 0361ms total)
T773C 005:482 JLINK_ReadMem (0x00000000, 0x0004 Bytes, ...) -- Read from C cache (4 bytes @ 0x08000000) - Data: F0 0C 00 20  returns 0x00 (0000ms, 0361ms total)
T773C 005:520 JLINK_ReadMemU32(0xE0001004, 0x0001 Items, ...) -- CPU_ReadMem(4 bytes @ 0xE0001004) - Data: 12 14 00 00  returns 0x01 (0001ms, 0362ms total)
T773C 005:528 JLINK_ReadMem (0x08003488, 0x003C Bytes, ...) -- CPU_ReadMem(128 bytes @ 0x08003480) -- Updating C cache (128 bytes @ 0x08003480) -- Read from C cache (60 bytes @ 0x08003488) - Data: 2D ED 06 8B 82 B0 FD F7 F5 FD 08 23 02 22 19 21 ...  returns 0x00 (0002ms, 0364ms total)
T97C4 008:679 JLINK_Step() -- Read from C cache (2 bytes @ 0x08003488) -- CPU_ReadMem(4 bytes @ 0xE000ED18) -- CPU_WriteMem(4 bytes @ 0xE000ED18) -- CPU_ReadMem(4 bytes @ 0xE000ED18) -- CPU_WriteMem(4 bytes @ 0xE000ED18) -- Read from C cache (2 bytes @ 0x0800348A) -- Not simulated -- CPU_WriteMem(4 bytes @ 0xE0002008)  returns 0x00 (0006ms, 0370ms total)
T97C4 008:685 JLINK_ReadReg(R15 (PC))  returns 0x0800348C (0000ms, 0370ms total)
T97C4 008:685 JLINK_ReadReg(XPSR)  returns 0x61000000 (0000ms, 0370ms total)
T97C4 008:685 JLINK_Step() -- CPU_ReadMem(64 bytes @ 0x08003480) -- Updating C cache (64 bytes @ 0x08003480) -- Read from C cache (2 bytes @ 0x0800348C) -- CPU_ReadMem(4 bytes @ 0xE0001004) -- Simulated  returns 0x00 (0001ms, 0371ms total)
T97C4 008:687 JLINK_ReadReg(R15 (PC))  returns 0x0800348E (0000ms, 0372ms total)
T97C4 008:687 JLINK_ReadReg(XPSR)  returns 0x61000000 (0000ms, 0372ms total)
T97C4 008:687 JLINK_ReadReg(R0)  returns 0x08003489 (0000ms, 0372ms total)
T97C4 008:687 JLINK_ReadReg(R1)  returns 0x20000CF0 (0000ms, 0372ms total)
T97C4 008:687 JLINK_ReadReg(R2)  returns 0x00000000 (0000ms, 0372ms total)
T97C4 008:687 JLINK_ReadReg(R3)  returns 0x08002B79 (0000ms, 0372ms total)
T97C4 008:687 JLINK_ReadReg(R4)  returns 0x08007D48 (0000ms, 0372ms total)
T97C4 008:687 JLINK_ReadReg(R5)  returns 0x08007D48 (0001ms, 0373ms total)
T97C4 008:688 JLINK_ReadReg(R6)  returns 0x00000000 (0000ms, 0373ms total)
T97C4 008:688 JLINK_ReadReg(R7)  returns 0x00000000 (0000ms, 0373ms total)
T97C4 008:688 JLINK_ReadReg(R8)  returns 0x00000000 (0000ms, 0373ms total)
T97C4 008:688 JLINK_ReadReg(R9)  returns 0x00000000 (0000ms, 0373ms total)
T97C4 008:688 JLINK_ReadReg(R10)  returns 0x00000000 (0000ms, 0373ms total)
T97C4 008:688 JLINK_ReadReg(R11)  returns 0x00000000 (0000ms, 0373ms total)
T97C4 008:688 JLINK_ReadReg(R12)  returns 0x00000000 (0000ms, 0373ms total)
T97C4 008:688 JLINK_ReadReg(R13 (SP))  returns 0x20000CD0 (0000ms, 0373ms total)
T97C4 008:688 JLINK_ReadReg(R14)  returns 0x080007C9 (0000ms, 0373ms total)
T97C4 008:688 JLINK_ReadReg(R15 (PC))  returns 0x0800348E (0000ms, 0373ms total)
T97C4 008:688 JLINK_ReadReg(XPSR)  returns 0x61000000 (0000ms, 0373ms total)
T97C4 008:688 JLINK_ReadReg(MSP)  returns 0x20000CD0 (0001ms, 0374ms total)
T97C4 008:689 JLINK_ReadReg(PSP)  returns 0x00000000 (0000ms, 0374ms total)
T97C4 008:689 JLINK_ReadReg(CFBP)  returns 0x04000000 (0000ms, 0374ms total)
T97C4 008:689 JLINK_ReadReg(FPSCR)  returns 0x00000000 (0003ms, 0377ms total)
T97C4 008:692 JLINK_ReadReg(FPS0)  returns 0x00000000 (0000ms, 0377ms total)
T97C4 008:692 JLINK_ReadReg(FPS1)  returns 0x00000000 (0000ms, 0377ms total)
T97C4 008:692 JLINK_ReadReg(FPS2)  returns 0x00000000 (0000ms, 0377ms total)
T97C4 008:692 JLINK_ReadReg(FPS3)  returns 0x00000000 (0000ms, 0377ms total)
T97C4 008:692 JLINK_ReadReg(FPS4)  returns 0x00000000 (0000ms, 0377ms total)
T97C4 008:692 JLINK_ReadReg(FPS5)  returns 0x00000000 (0000ms, 0377ms total)
T97C4 008:692 JLINK_ReadReg(FPS6)  returns 0x00000000 (0000ms, 0377ms total)
T97C4 008:692 JLINK_ReadReg(FPS7)  returns 0x00000000 (0000ms, 0377ms total)
T97C4 008:692 JLINK_ReadReg(FPS8)  returns 0x00000000 (0000ms, 0377ms total)
T97C4 008:692 JLINK_ReadReg(FPS9)  returns 0x00000000 (0000ms, 0377ms total)
T97C4 008:692 JLINK_ReadReg(FPS10)  returns 0x00000000 (0001ms, 0378ms total)
T97C4 008:693 JLINK_ReadReg(FPS11)  returns 0x00000000 (0000ms, 0378ms total)
T97C4 008:693 JLINK_ReadReg(FPS12)  returns 0x00000000 (0000ms, 0378ms total)
T97C4 008:693 JLINK_ReadReg(FPS13)  returns 0x00000000 (0000ms, 0378ms total)
T97C4 008:693 JLINK_ReadReg(FPS14)  returns 0x00000000 (0000ms, 0378ms total)
T97C4 008:693 JLINK_ReadReg(FPS15)  returns 0x00000000 (0000ms, 0378ms total)
T97C4 008:693 JLINK_ReadReg(FPS16)  returns 0x00000000 (0000ms, 0378ms total)
T97C4 008:693 JLINK_ReadReg(FPS17)  returns 0x00000000 (0000ms, 0378ms total)
T97C4 008:693 JLINK_ReadReg(FPS18)  returns 0x00000000 (0000ms, 0378ms total)
T97C4 008:693 JLINK_ReadReg(FPS19)  returns 0x00000000 (0000ms, 0378ms total)
T97C4 008:693 JLINK_ReadReg(FPS20)  returns 0x00000000 (0000ms, 0378ms total)
T97C4 008:693 JLINK_ReadReg(FPS21)  returns 0x00000000 (0000ms, 0378ms total)
T97C4 008:693 JLINK_ReadReg(FPS22)  returns 0x00000000 (0000ms, 0378ms total)
T97C4 008:693 JLINK_ReadReg(FPS23)  returns 0x00000000 (0000ms, 0378ms total)
T97C4 008:693 JLINK_ReadReg(FPS24)  returns 0x00000000 (0000ms, 0378ms total)
T97C4 008:693 JLINK_ReadReg(FPS25)  returns 0x00000000 (0000ms, 0378ms total)
T97C4 008:694 JLINK_ReadReg(FPS26)  returns 0x00000000 (0000ms, 0379ms total)
T97C4 008:694 JLINK_ReadReg(FPS27)  returns 0x00000000 (0000ms, 0379ms total)
T97C4 008:694 JLINK_ReadReg(FPS28)  returns 0x00000000 (0000ms, 0379ms total)
T97C4 008:694 JLINK_ReadReg(FPS29)  returns 0x00000000 (0000ms, 0379ms total)
T97C4 008:694 JLINK_ReadReg(FPS30)  returns 0x00000000 (0000ms, 0379ms total)
T97C4 008:694 JLINK_ReadReg(FPS31)  returns 0x00000000 (0000ms, 0379ms total)
T773C 008:694 JLINK_ReadMem (0x00000000, 0x0002 Bytes, ...) -- CPU_ReadMem(4 bytes @ 0x00000004) -- CPU_ReadMem(64 bytes @ 0x08000000) -- Updating C cache (64 bytes @ 0x08000000) -- Read from C cache (2 bytes @ 0x08000000) - Data: F0 0C  returns 0x00 (0001ms, 0380ms total)
T773C 008:696 JLINK_ReadMem (0x00000000, 0x0004 Bytes, ...) -- Read from C cache (4 bytes @ 0x08000000) - Data: F0 0C 00 20  returns 0x00 (0000ms, 0380ms total)
T773C 008:696 JLINK_ReadMemU32(0xE0001004, 0x0001 Items, ...) - Data: 19 14 00 00  returns 0x01 (0000ms, 0380ms total)
T773C 008:700 JLINK_ReadMem (0x0800348E, 0x0002 Bytes, ...) -- Read from C cache (2 bytes @ 0x0800348E) - Data: FD F7  returns 0x00 (0000ms, 0380ms total)
T773C 008:700 JLINK_ReadMem (0x08003490, 0x003C Bytes, ...) -- CPU_ReadMem(64 bytes @ 0x080034C0) -- Updating C cache (64 bytes @ 0x080034C0) -- Read from C cache (60 bytes @ 0x08003490) - Data: F5 FD 08 23 02 22 19 21 4F F4 B4 70 FF F7 DC F8 ...  returns 0x00 (0001ms, 0381ms total)
T97C4 012:500 JLINK_SetBPEx(Addr = 0x08003492, Type = 0xFFFFFFF2)  returns 0x00000002 (0000ms, 0381ms total)
T97C4 012:500 JLINK_Go() -- CPU_ReadMem(4 bytes @ 0xE0001000) -- CPU_WriteMem(4 bytes @ 0xE0002008) -- CPU_WriteMem(4 bytes @ 0xE0001004) (0003ms, 0384ms total)
T97C4 012:604 JLINK_IsHalted()  returns TRUE (0003ms, 0387ms total)
T97C4 012:607 JLINK_Halt()  returns 0x00 (0000ms, 0384ms total)
T97C4 012:607 JLINK_IsHalted()  returns TRUE (0000ms, 0384ms total)
T97C4 012:607 JLINK_IsHalted()  returns TRUE (0000ms, 0384ms total)
T97C4 012:607 JLINK_IsHalted()  returns TRUE (0000ms, 0384ms total)
T97C4 012:607 JLINK_ReadReg(R15 (PC))  returns 0x08003492 (0000ms, 0384ms total)
T97C4 012:607 JLINK_ReadReg(XPSR)  returns 0x61000000 (0000ms, 0384ms total)
T97C4 012:607 JLINK_ClrBPEx(BPHandle = 0x00000002)  returns 0x00 (0000ms, 0384ms total)
T97C4 012:607 JLINK_ReadMemU32(0xE000ED30, 0x0001 Items, ...) -- CPU_ReadMem(4 bytes @ 0xE000ED30) - Data: 02 00 00 00  returns 0x01 (0001ms, 0385ms total)
T97C4 012:608 JLINK_ReadMemU32(0xE0001028, 0x0001 Items, ...) -- CPU_ReadMem(4 bytes @ 0xE0001028) - Data: 00 00 00 00  returns 0x01 (0001ms, 0386ms total)
T97C4 012:609 JLINK_ReadMemU32(0xE0001038, 0x0001 Items, ...) -- CPU_ReadMem(4 bytes @ 0xE0001038) - Data: 00 02 00 00  returns 0x01 (0000ms, 0386ms total)
T97C4 012:609 JLINK_ReadMemU32(0xE0001048, 0x0001 Items, ...) -- CPU_ReadMem(4 bytes @ 0xE0001048) - Data: 00 00 00 00  returns 0x01 (0001ms, 0387ms total)
T97C4 012:610 JLINK_ReadMemU32(0xE0001058, 0x0001 Items, ...) -- CPU_ReadMem(4 bytes @ 0xE0001058) - Data: 00 00 00 00  returns 0x01 (0001ms, 0388ms total)
T97C4 012:611 JLINK_ReadReg(R0)  returns 0x00000000 (0001ms, 0389ms total)
T97C4 012:612 JLINK_ReadReg(R1)  returns 0x0000000C (0000ms, 0389ms total)
T97C4 012:612 JLINK_ReadReg(R2)  returns 0xE000ED18 (0000ms, 0389ms total)
T97C4 012:612 JLINK_ReadReg(R3)  returns 0x00000000 (0000ms, 0389ms total)
T97C4 012:612 JLINK_ReadReg(R4)  returns 0x08007D48 (0000ms, 0389ms total)
T97C4 012:612 JLINK_ReadReg(R5)  returns 0x08007D48 (0000ms, 0389ms total)
T97C4 012:612 JLINK_ReadReg(R6)  returns 0x00000000 (0000ms, 0389ms total)
T97C4 012:612 JLINK_ReadReg(R7)  returns 0x00000000 (0000ms, 0389ms total)
T97C4 012:612 JLINK_ReadReg(R8)  returns 0x00000000 (0000ms, 0389ms total)
T97C4 012:612 JLINK_ReadReg(R9)  returns 0x00000000 (0000ms, 0389ms total)
T97C4 012:612 JLINK_ReadReg(R10)  returns 0x00000000 (0000ms, 0389ms total)
T97C4 012:612 JLINK_ReadReg(R11)  returns 0x00000000 (0000ms, 0389ms total)
T97C4 012:612 JLINK_ReadReg(R12)  returns 0x00000000 (0000ms, 0389ms total)
T97C4 012:612 JLINK_ReadReg(R13 (SP))  returns 0x20000CD0 (0000ms, 0389ms total)
T97C4 012:612 JLINK_ReadReg(R14)  returns 0x080010AF (0000ms, 0389ms total)
T97C4 012:612 JLINK_ReadReg(R15 (PC))  returns 0x08003492 (0000ms, 0389ms total)
T97C4 012:612 JLINK_ReadReg(XPSR)  returns 0x61000000 (0000ms, 0389ms total)
T97C4 012:612 JLINK_ReadReg(MSP)  returns 0x20000CD0 (0000ms, 0389ms total)
T97C4 012:612 JLINK_ReadReg(PSP)  returns 0x00000000 (0000ms, 0389ms total)
T97C4 012:612 JLINK_ReadReg(CFBP)  returns 0x04000000 (0000ms, 0389ms total)
T97C4 012:612 JLINK_ReadReg(FPSCR)  returns 0x00000000 (0004ms, 0393ms total)
T97C4 012:616 JLINK_ReadReg(FPS0)  returns 0x00000000 (0000ms, 0393ms total)
T97C4 012:616 JLINK_ReadReg(FPS1)  returns 0x00000000 (0000ms, 0393ms total)
T97C4 012:616 JLINK_ReadReg(FPS2)  returns 0x00000000 (0000ms, 0393ms total)
T97C4 012:616 JLINK_ReadReg(FPS3)  returns 0x00000000 (0000ms, 0393ms total)
T97C4 012:616 JLINK_ReadReg(FPS4)  returns 0x00000000 (0000ms, 0393ms total)
T97C4 012:616 JLINK_ReadReg(FPS5)  returns 0x00000000 (0000ms, 0393ms total)
T97C4 012:616 JLINK_ReadReg(FPS6)  returns 0x00000000 (0000ms, 0393ms total)
T97C4 012:616 JLINK_ReadReg(FPS7)  returns 0x00000000 (0001ms, 0394ms total)
T97C4 012:617 JLINK_ReadReg(FPS8)  returns 0x00000000 (0000ms, 0394ms total)
T97C4 012:617 JLINK_ReadReg(FPS9)  returns 0x00000000 (0000ms, 0394ms total)
T97C4 012:617 JLINK_ReadReg(FPS10)  returns 0x00000000 (0000ms, 0394ms total)
T97C4 012:617 JLINK_ReadReg(FPS11)  returns 0x00000000 (0000ms, 0394ms total)
T97C4 012:617 JLINK_ReadReg(FPS12)  returns 0x00000000 (0000ms, 0394ms total)
T97C4 012:617 JLINK_ReadReg(FPS13)  returns 0x00000000 (0000ms, 0394ms total)
T97C4 012:617 JLINK_ReadReg(FPS14)  returns 0x00000000 (0000ms, 0394ms total)
T97C4 012:617 JLINK_ReadReg(FPS15)  returns 0x00000000 (0000ms, 0394ms total)
T97C4 012:617 JLINK_ReadReg(FPS16)  returns 0x00000000 (0000ms, 0394ms total)
T97C4 012:617 JLINK_ReadReg(FPS17)  returns 0x00000000 (0000ms, 0394ms total)
T97C4 012:617 JLINK_ReadReg(FPS18)  returns 0x00000000 (0000ms, 0394ms total)
T97C4 012:617 JLINK_ReadReg(FPS19)  returns 0x00000000 (0000ms, 0394ms total)
T97C4 012:617 JLINK_ReadReg(FPS20)  returns 0x00000000 (0000ms, 0394ms total)
T97C4 012:617 JLINK_ReadReg(FPS21)  returns 0x00000000 (0000ms, 0394ms total)
T97C4 012:617 JLINK_ReadReg(FPS22)  returns 0x00000000 (0000ms, 0394ms total)
T97C4 012:617 JLINK_ReadReg(FPS23)  returns 0x00000000 (0000ms, 0394ms total)
T97C4 012:617 JLINK_ReadReg(FPS24)  returns 0x00000000 (0001ms, 0395ms total)
T97C4 012:618 JLINK_ReadReg(FPS25)  returns 0x00000000 (0000ms, 0395ms total)
T97C4 012:618 JLINK_ReadReg(FPS26)  returns 0x00000000 (0000ms, 0395ms total)
T97C4 012:618 JLINK_ReadReg(FPS27)  returns 0x00000000 (0000ms, 0395ms total)
T97C4 012:618 JLINK_ReadReg(FPS28)  returns 0x00000000 (0000ms, 0395ms total)
T97C4 012:618 JLINK_ReadReg(FPS29)  returns 0x00000000 (0000ms, 0395ms total)
T97C4 012:618 JLINK_ReadReg(FPS30)  returns 0x00000000 (0000ms, 0395ms total)
T97C4 012:618 JLINK_ReadReg(FPS31)  returns 0x00000000 (0000ms, 0395ms total)
T773C 012:618 JLINK_ReadMem (0x00000000, 0x0002 Bytes, ...) -- CPU_ReadMem(4 bytes @ 0x00000004) -- CPU_ReadMem(64 bytes @ 0x08000000) -- Updating C cache (64 bytes @ 0x08000000) -- Read from C cache (2 bytes @ 0x08000000) - Data: F0 0C  returns 0x00 (0001ms, 0396ms total)
T773C 012:620 JLINK_ReadMem (0x00000000, 0x0004 Bytes, ...) -- Read from C cache (4 bytes @ 0x08000000) - Data: F0 0C 00 20  returns 0x00 (0000ms, 0396ms total)
T773C 012:620 JLINK_ReadMemU32(0xE0001004, 0x0001 Items, ...) -- CPU_ReadMem(4 bytes @ 0xE0001004) - Data: 5F 15 00 00  returns 0x01 (0000ms, 0396ms total)
T773C 012:628 JLINK_ReadMem (0x0800348E, 0x0002 Bytes, ...) -- CPU_ReadMem(64 bytes @ 0x08003480) -- Updating C cache (64 bytes @ 0x08003480) -- Read from C cache (2 bytes @ 0x0800348E) - Data: FD F7  returns 0x00 (0001ms, 0397ms total)
T773C 012:629 JLINK_ReadMem (0x08003490, 0x003C Bytes, ...) -- CPU_ReadMem(64 bytes @ 0x080034C0) -- Updating C cache (64 bytes @ 0x080034C0) -- Read from C cache (60 bytes @ 0x08003490) - Data: F5 FD 08 23 02 22 19 21 4F F4 B4 70 FF F7 DC F8 ...  returns 0x00 (0002ms, 0399ms total)
T97C4 013:870 JLINK_Step() -- Read from C cache (2 bytes @ 0x08003492) -- Simulated  returns 0x00 (0000ms, 0399ms total)
T97C4 013:870 JLINK_ReadReg(R15 (PC))  returns 0x08003494 (0000ms, 0399ms total)
T97C4 013:870 JLINK_ReadReg(XPSR)  returns 0x21000000 (0000ms, 0399ms total)
T97C4 013:870 JLINK_Step() -- Read from C cache (2 bytes @ 0x08003494) -- Simulated  returns 0x00 (0000ms, 0399ms total)
T97C4 013:870 JLINK_ReadReg(R15 (PC))  returns 0x08003496 (0000ms, 0399ms total)
T97C4 013:871 JLINK_ReadReg(XPSR)  returns 0x21000000 (0000ms, 0400ms total)
T97C4 013:871 JLINK_Step() -- Read from C cache (2 bytes @ 0x08003496) -- Simulated  returns 0x00 (0000ms, 0400ms total)
T97C4 013:871 JLINK_ReadReg(R15 (PC))  returns 0x08003498 (0000ms, 0400ms total)
T97C4 013:871 JLINK_ReadReg(XPSR)  returns 0x21000000 (0000ms, 0400ms total)
T97C4 013:871 JLINK_Step() -- Read from C cache (2 bytes @ 0x08003498) -- Read from C cache (2 bytes @ 0x0800349A) -- Simulated  returns 0x00 (0000ms, 0400ms total)
T97C4 013:871 JLINK_ReadReg(R15 (PC))  returns 0x0800349C (0000ms, 0400ms total)
T97C4 013:871 JLINK_ReadReg(XPSR)  returns 0x21000000 (0000ms, 0400ms total)
T97C4 013:871 JLINK_SetBPEx(Addr = 0x080034A0, Type = 0xFFFFFFF2)  returns 0x00000003 (0000ms, 0400ms total)
T97C4 013:871 JLINK_Go() -- CPU_ReadMem(4 bytes @ 0xE0001000) -- CPU_WriteMem(4 bytes @ 0xE0002008) -- CPU_WriteMem(4 bytes @ 0xE0001004) (0003ms, 0403ms total)
T97C4 013:975 JLINK_IsHalted()  returns TRUE (0002ms, 0405ms total)
T97C4 013:977 JLINK_Halt()  returns 0x00 (0000ms, 0403ms total)
T97C4 013:977 JLINK_IsHalted()  returns TRUE (0000ms, 0403ms total)
T97C4 013:977 JLINK_IsHalted()  returns TRUE (0000ms, 0403ms total)
T97C4 013:977 JLINK_IsHalted()  returns TRUE (0000ms, 0403ms total)
T97C4 013:977 JLINK_ReadReg(R15 (PC))  returns 0x080034A0 (0001ms, 0404ms total)
T97C4 013:978 JLINK_ReadReg(XPSR)  returns 0x61000000 (0000ms, 0404ms total)
T97C4 013:978 JLINK_ClrBPEx(BPHandle = 0x00000003)  returns 0x00 (0000ms, 0404ms total)
T97C4 013:978 JLINK_ReadMemU32(0xE000ED30, 0x0001 Items, ...) -- CPU_ReadMem(4 bytes @ 0xE000ED30) - Data: 02 00 00 00  returns 0x01 (0001ms, 0405ms total)
T97C4 013:979 JLINK_ReadMemU32(0xE0001028, 0x0001 Items, ...) -- CPU_ReadMem(4 bytes @ 0xE0001028) - Data: 00 00 00 00  returns 0x01 (0001ms, 0406ms total)
T97C4 013:980 JLINK_ReadMemU32(0xE0001038, 0x0001 Items, ...) -- CPU_ReadMem(4 bytes @ 0xE0001038) - Data: 00 02 00 00  returns 0x01 (0000ms, 0406ms total)
T97C4 013:980 JLINK_ReadMemU32(0xE0001048, 0x0001 Items, ...) -- CPU_ReadMem(4 bytes @ 0xE0001048) - Data: 00 00 00 00  returns 0x01 (0001ms, 0407ms total)
T97C4 013:981 JLINK_ReadMemU32(0xE0001058, 0x0001 Items, ...) -- CPU_ReadMem(4 bytes @ 0xE0001058) - Data: 00 00 00 00  returns 0x01 (0001ms, 0408ms total)
T97C4 013:983 JLINK_ReadReg(R0)  returns 0x00000000 (0000ms, 0408ms total)
T97C4 013:983 JLINK_ReadReg(R1)  returns 0x0000000C (0000ms, 0408ms total)
T97C4 013:983 JLINK_ReadReg(R2)  returns 0xE000ED18 (0000ms, 0408ms total)
T97C4 013:983 JLINK_ReadReg(R3)  returns 0x0000000B (0000ms, 0408ms total)
T97C4 013:983 JLINK_ReadReg(R4)  returns 0x08007D48 (0000ms, 0408ms total)
T97C4 013:983 JLINK_ReadReg(R5)  returns 0x08007D48 (0000ms, 0408ms total)
T97C4 013:983 JLINK_ReadReg(R6)  returns 0x00000000 (0000ms, 0408ms total)
T97C4 013:984 JLINK_ReadReg(R7)  returns 0x00000000 (0000ms, 0408ms total)
T97C4 013:984 JLINK_ReadReg(R8)  returns 0x00000000 (0000ms, 0408ms total)
T97C4 013:984 JLINK_ReadReg(R9)  returns 0x00000000 (0000ms, 0408ms total)
T97C4 013:984 JLINK_ReadReg(R10)  returns 0x00000000 (0000ms, 0408ms total)
T97C4 013:984 JLINK_ReadReg(R11)  returns 0x00000000 (0000ms, 0408ms total)
T97C4 013:984 JLINK_ReadReg(R12)  returns 0x00000000 (0000ms, 0408ms total)
T97C4 013:984 JLINK_ReadReg(R13 (SP))  returns 0x20000CD0 (0000ms, 0408ms total)
T97C4 013:984 JLINK_ReadReg(R14)  returns 0x08001179 (0000ms, 0408ms total)
T97C4 013:985 JLINK_ReadReg(R15 (PC))  returns 0x080034A0 (0000ms, 0409ms total)
T97C4 013:985 JLINK_ReadReg(XPSR)  returns 0x61000000 (0000ms, 0409ms total)
T97C4 013:985 JLINK_ReadReg(MSP)  returns 0x20000CD0 (0000ms, 0409ms total)
T97C4 013:985 JLINK_ReadReg(PSP)  returns 0x00000000 (0000ms, 0409ms total)
T97C4 013:985 JLINK_ReadReg(CFBP)  returns 0x04000000 (0000ms, 0409ms total)
T97C4 013:985 JLINK_ReadReg(FPSCR)  returns 0x00000000 (0003ms, 0412ms total)
T97C4 013:989 JLINK_ReadReg(FPS0)  returns 0x00000000 (0000ms, 0412ms total)
T97C4 013:989 JLINK_ReadReg(FPS1)  returns 0x00000000 (0000ms, 0412ms total)
T97C4 013:989 JLINK_ReadReg(FPS2)  returns 0x00000000 (0000ms, 0412ms total)
T97C4 013:989 JLINK_ReadReg(FPS3)  returns 0x00000000 (0000ms, 0412ms total)
T97C4 013:989 JLINK_ReadReg(FPS4)  returns 0x00000000 (0000ms, 0412ms total)
T97C4 013:989 JLINK_ReadReg(FPS5)  returns 0x00000000 (0000ms, 0412ms total)
T97C4 013:989 JLINK_ReadReg(FPS6)  returns 0x00000000 (0000ms, 0412ms total)
T97C4 013:989 JLINK_ReadReg(FPS7)  returns 0x00000000 (0000ms, 0412ms total)
T97C4 013:989 JLINK_ReadReg(FPS8)  returns 0x00000000 (0000ms, 0412ms total)
T97C4 013:989 JLINK_ReadReg(FPS9)  returns 0x00000000 (0000ms, 0412ms total)
T97C4 013:989 JLINK_ReadReg(FPS10)  returns 0x00000000 (0000ms, 0412ms total)
T97C4 013:989 JLINK_ReadReg(FPS11)  returns 0x00000000 (0001ms, 0413ms total)
T97C4 013:990 JLINK_ReadReg(FPS12)  returns 0x00000000 (0000ms, 0413ms total)
T97C4 013:990 JLINK_ReadReg(FPS13)  returns 0x00000000 (0000ms, 0413ms total)
T97C4 013:990 JLINK_ReadReg(FPS14)  returns 0x00000000 (0000ms, 0413ms total)
T97C4 013:990 JLINK_ReadReg(FPS15)  returns 0x00000000 (0000ms, 0413ms total)
T97C4 013:990 JLINK_ReadReg(FPS16)  returns 0x00000000 (0000ms, 0413ms total)
T97C4 013:990 JLINK_ReadReg(FPS17)  returns 0x00000000 (0000ms, 0413ms total)
T97C4 013:990 JLINK_ReadReg(FPS18)  returns 0x00000000 (0000ms, 0413ms total)
T97C4 013:990 JLINK_ReadReg(FPS19)  returns 0x00000000 (0000ms, 0413ms total)
T97C4 013:990 JLINK_ReadReg(FPS20)  returns 0x00000000 (0000ms, 0413ms total)
T97C4 013:990 JLINK_ReadReg(FPS21)  returns 0x00000000 (0001ms, 0414ms total)
T97C4 013:991 JLINK_ReadReg(FPS22)  returns 0x00000000 (0000ms, 0414ms total)
T97C4 013:991 JLINK_ReadReg(FPS23)  returns 0x00000000 (0000ms, 0414ms total)
T97C4 013:991 JLINK_ReadReg(FPS24)  returns 0x00000000 (0000ms, 0414ms total)
T97C4 013:991 JLINK_ReadReg(FPS25)  returns 0x00000000 (0000ms, 0414ms total)
T97C4 013:991 JLINK_ReadReg(FPS26)  returns 0x00000000 (0000ms, 0414ms total)
T97C4 013:991 JLINK_ReadReg(FPS27)  returns 0x00000000 (0000ms, 0414ms total)
T97C4 013:991 JLINK_ReadReg(FPS28)  returns 0x00000000 (0000ms, 0414ms total)
T97C4 013:991 JLINK_ReadReg(FPS29)  returns 0x00000000 (0000ms, 0414ms total)
T97C4 013:991 JLINK_ReadReg(FPS30)  returns 0x00000000 (0000ms, 0414ms total)
T97C4 013:992 JLINK_ReadReg(FPS31)  returns 0x00000000 (0000ms, 0414ms total)
T773C 013:992 JLINK_ReadMem (0x00000000, 0x0002 Bytes, ...) -- CPU_ReadMem(4 bytes @ 0x00000004) -- CPU_ReadMem(64 bytes @ 0x08000000) -- Updating C cache (64 bytes @ 0x08000000) -- Read from C cache (2 bytes @ 0x08000000) - Data: F0 0C  returns 0x00 (0001ms, 0415ms total)
T773C 013:993 JLINK_ReadMem (0x00000000, 0x0004 Bytes, ...) -- Read from C cache (4 bytes @ 0x08000000) - Data: F0 0C 00 20  returns 0x00 (0000ms, 0415ms total)
T773C 013:993 JLINK_ReadMemU32(0xE0001004, 0x0001 Items, ...) -- CPU_ReadMem(4 bytes @ 0xE0001004) - Data: 12 59 00 00  returns 0x01 (0001ms, 0416ms total)
T773C 014:002 JLINK_ReadMem (0x080034A0, 0x003C Bytes, ...) -- CPU_ReadMem(128 bytes @ 0x08003480) -- Updating C cache (128 bytes @ 0x08003480) -- Read from C cache (60 bytes @ 0x080034A0) - Data: 4F F4 E1 30 00 F0 78 F8 FE F7 B4 FF FF F7 8C F8 ...  returns 0x00 (0002ms, 0418ms total)
T97C4 015:431 JLINK_Step() -- Read from C cache (2 bytes @ 0x080034A0) -- Read from C cache (2 bytes @ 0x080034A2) -- Simulated  returns 0x00 (0001ms, 0419ms total)
T97C4 015:432 JLINK_ReadReg(R15 (PC))  returns 0x080034A4 (0000ms, 0419ms total)
T97C4 015:432 JLINK_ReadReg(XPSR)  returns 0x61000000 (0000ms, 0419ms total)
T97C4 015:432 JLINK_SetBPEx(Addr = 0x080034A8, Type = 0xFFFFFFF2)  returns 0x00000004 (0000ms, 0419ms total)
T97C4 015:432 JLINK_Go() -- CPU_ReadMem(4 bytes @ 0xE0001000) -- CPU_WriteMem(4 bytes @ 0xE0002008) -- CPU_WriteMem(4 bytes @ 0xE0001004) (0002ms, 0421ms total)
T97C4 015:535 JLINK_IsHalted()  returns TRUE (0002ms, 0423ms total)
T97C4 015:537 JLINK_Halt()  returns 0x00 (0000ms, 0421ms total)
T97C4 015:537 JLINK_IsHalted()  returns TRUE (0000ms, 0421ms total)
T97C4 015:537 JLINK_IsHalted()  returns TRUE (0000ms, 0421ms total)
T97C4 015:537 JLINK_IsHalted()  returns TRUE (0000ms, 0421ms total)
T97C4 015:537 JLINK_ReadReg(R15 (PC))  returns 0x080034A8 (0000ms, 0421ms total)
T97C4 015:537 JLINK_ReadReg(XPSR)  returns 0x41000000 (0000ms, 0421ms total)
T97C4 015:537 JLINK_ClrBPEx(BPHandle = 0x00000004)  returns 0x00 (0000ms, 0421ms total)
T97C4 015:537 JLINK_ReadMemU32(0xE000ED30, 0x0001 Items, ...) -- CPU_ReadMem(4 bytes @ 0xE000ED30) - Data: 02 00 00 00  returns 0x01 (0001ms, 0422ms total)
T97C4 015:538 JLINK_ReadMemU32(0xE0001028, 0x0001 Items, ...) -- CPU_ReadMem(4 bytes @ 0xE0001028) - Data: 00 00 00 00  returns 0x01 (0001ms, 0423ms total)
T97C4 015:539 JLINK_ReadMemU32(0xE0001038, 0x0001 Items, ...) -- CPU_ReadMem(4 bytes @ 0xE0001038) - Data: 00 02 00 00  returns 0x01 (0000ms, 0423ms total)
T97C4 015:539 JLINK_ReadMemU32(0xE0001048, 0x0001 Items, ...) -- CPU_ReadMem(4 bytes @ 0xE0001048) - Data: 00 00 00 00  returns 0x01 (0001ms, 0424ms total)
T97C4 015:540 JLINK_ReadMemU32(0xE0001058, 0x0001 Items, ...) -- CPU_ReadMem(4 bytes @ 0xE0001058) - Data: 00 00 00 00  returns 0x01 (0001ms, 0425ms total)
T97C4 015:541 JLINK_ReadReg(R0)  returns 0x00000000 (0000ms, 0425ms total)
T97C4 015:541 JLINK_ReadReg(R1)  returns 0x20000032 (0000ms, 0425ms total)
T97C4 015:541 JLINK_ReadReg(R2)  returns 0x00000001 (0000ms, 0425ms total)
T97C4 015:541 JLINK_ReadReg(R3)  returns 0x200002B0 (0000ms, 0425ms total)
T97C4 015:541 JLINK_ReadReg(R4)  returns 0x08007D48 (0000ms, 0425ms total)
T97C4 015:541 JLINK_ReadReg(R5)  returns 0x08007D48 (0001ms, 0426ms total)
T97C4 015:542 JLINK_ReadReg(R6)  returns 0x00000000 (0000ms, 0426ms total)
T97C4 015:542 JLINK_ReadReg(R7)  returns 0x00000000 (0000ms, 0426ms total)
T97C4 015:542 JLINK_ReadReg(R8)  returns 0x00000000 (0000ms, 0426ms total)
T97C4 015:542 JLINK_ReadReg(R9)  returns 0x00000000 (0000ms, 0426ms total)
T97C4 015:542 JLINK_ReadReg(R10)  returns 0x00000000 (0000ms, 0426ms total)
T97C4 015:542 JLINK_ReadReg(R11)  returns 0x00000000 (0000ms, 0426ms total)
T97C4 015:542 JLINK_ReadReg(R12)  returns 0x00000000 (0000ms, 0426ms total)
T97C4 015:542 JLINK_ReadReg(R13 (SP))  returns 0x20000CD0 (0000ms, 0426ms total)
T97C4 015:542 JLINK_ReadReg(R14)  returns 0x080035C3 (0000ms, 0426ms total)
T97C4 015:542 JLINK_ReadReg(R15 (PC))  returns 0x080034A8 (0000ms, 0426ms total)
T97C4 015:542 JLINK_ReadReg(XPSR)  returns 0x41000000 (0000ms, 0426ms total)
T97C4 015:542 JLINK_ReadReg(MSP)  returns 0x20000CD0 (0001ms, 0427ms total)
T97C4 015:543 JLINK_ReadReg(PSP)  returns 0x00000000 (0000ms, 0427ms total)
T97C4 015:543 JLINK_ReadReg(CFBP)  returns 0x04000000 (0000ms, 0427ms total)
T97C4 015:543 JLINK_ReadReg(FPSCR)  returns 0x00000000 (0003ms, 0430ms total)
T97C4 015:546 JLINK_ReadReg(FPS0)  returns 0x00000000 (0000ms, 0430ms total)
T97C4 015:546 JLINK_ReadReg(FPS1)  returns 0x00000000 (0000ms, 0430ms total)
T97C4 015:546 JLINK_ReadReg(FPS2)  returns 0x00000000 (0000ms, 0430ms total)
T97C4 015:546 JLINK_ReadReg(FPS3)  returns 0x00000000 (0000ms, 0430ms total)
T97C4 015:546 JLINK_ReadReg(FPS4)  returns 0x00000000 (0000ms, 0430ms total)
T97C4 015:546 JLINK_ReadReg(FPS5)  returns 0x00000000 (0001ms, 0431ms total)
T97C4 015:547 JLINK_ReadReg(FPS6)  returns 0x00000000 (0000ms, 0431ms total)
T97C4 015:547 JLINK_ReadReg(FPS7)  returns 0x00000000 (0000ms, 0431ms total)
T97C4 015:547 JLINK_ReadReg(FPS8)  returns 0x00000000 (0000ms, 0431ms total)
T97C4 015:547 JLINK_ReadReg(FPS9)  returns 0x00000000 (0000ms, 0431ms total)
T97C4 015:547 JLINK_ReadReg(FPS10)  returns 0x00000000 (0000ms, 0431ms total)
T97C4 015:547 JLINK_ReadReg(FPS11)  returns 0x00000000 (0000ms, 0431ms total)
T97C4 015:547 JLINK_ReadReg(FPS12)  returns 0x00000000 (0000ms, 0431ms total)
T97C4 015:547 JLINK_ReadReg(FPS13)  returns 0x00000000 (0000ms, 0431ms total)
T97C4 015:547 JLINK_ReadReg(FPS14)  returns 0x00000000 (0001ms, 0432ms total)
T97C4 015:548 JLINK_ReadReg(FPS15)  returns 0x00000000 (0000ms, 0432ms total)
T97C4 015:548 JLINK_ReadReg(FPS16)  returns 0x00000000 (0000ms, 0432ms total)
T97C4 015:548 JLINK_ReadReg(FPS17)  returns 0x00000000 (0000ms, 0432ms total)
T97C4 015:548 JLINK_ReadReg(FPS18)  returns 0x00000000 (0000ms, 0432ms total)
T97C4 015:548 JLINK_ReadReg(FPS19)  returns 0x00000000 (0000ms, 0432ms total)
T97C4 015:548 JLINK_ReadReg(FPS20)  returns 0x00000000 (0000ms, 0432ms total)
T97C4 015:548 JLINK_ReadReg(FPS21)  returns 0x00000000 (0000ms, 0432ms total)
T97C4 015:548 JLINK_ReadReg(FPS22)  returns 0x00000000 (0000ms, 0432ms total)
T97C4 015:548 JLINK_ReadReg(FPS23)  returns 0x00000000 (0000ms, 0432ms total)
T97C4 015:548 JLINK_ReadReg(FPS24)  returns 0x00000000 (0001ms, 0433ms total)
T97C4 015:549 JLINK_ReadReg(FPS25)  returns 0x00000000 (0000ms, 0433ms total)
T97C4 015:549 JLINK_ReadReg(FPS26)  returns 0x00000000 (0000ms, 0433ms total)
T97C4 015:549 JLINK_ReadReg(FPS27)  returns 0x00000000 (0000ms, 0433ms total)
T97C4 015:549 JLINK_ReadReg(FPS28)  returns 0x00000000 (0000ms, 0433ms total)
T97C4 015:549 JLINK_ReadReg(FPS29)  returns 0x00000000 (0000ms, 0433ms total)
T97C4 015:549 JLINK_ReadReg(FPS30)  returns 0x00000000 (0000ms, 0433ms total)
T97C4 015:549 JLINK_ReadReg(FPS31)  returns 0x00000000 (0000ms, 0433ms total)
T773C 015:551 JLINK_ReadMem (0x00000000, 0x0002 Bytes, ...) -- CPU_ReadMem(4 bytes @ 0x00000004) -- CPU_ReadMem(64 bytes @ 0x08000000) -- Updating C cache (64 bytes @ 0x08000000) -- Read from C cache (2 bytes @ 0x08000000) - Data: F0 0C  returns 0x00 (0002ms, 0435ms total)
T773C 015:553 JLINK_ReadMem (0x00000000, 0x0004 Bytes, ...) -- Read from C cache (4 bytes @ 0x08000000) - Data: F0 0C 00 20  returns 0x00 (0000ms, 0435ms total)
T773C 015:553 JLINK_ReadMemU32(0xE0001004, 0x0001 Items, ...) -- CPU_ReadMem(4 bytes @ 0xE0001004) - Data: D5 60 00 00  returns 0x01 (0001ms, 0436ms total)
T773C 015:575 JLINK_ReadMem (0x080034A8, 0x003C Bytes, ...) -- CPU_ReadMem(128 bytes @ 0x08003480) -- Updating C cache (128 bytes @ 0x08003480) -- Read from C cache (60 bytes @ 0x080034A8) - Data: FE F7 B4 FF FF F7 8C F8 50 E0 64 21 01 20 FD F7 ...  returns 0x00 (0001ms, 0437ms total)
T97C4 016:839 JLINK_SetBPEx(Addr = 0x080034AC, Type = 0xFFFFFFF2)  returns 0x00000005 (0000ms, 0437ms total)
T97C4 016:839 JLINK_Go() -- CPU_ReadMem(4 bytes @ 0xE0001000) -- CPU_WriteMem(4 bytes @ 0xE0002008) (0002ms, 0439ms total)
T97C4 016:942 JLINK_IsHalted()  returns TRUE (0002ms, 0441ms total)
T97C4 016:944 JLINK_Halt()  returns 0x00 (0000ms, 0439ms total)
T97C4 016:944 JLINK_IsHalted()  returns TRUE (0000ms, 0439ms total)
T97C4 016:944 JLINK_IsHalted()  returns TRUE (0000ms, 0439ms total)
T97C4 016:944 JLINK_IsHalted()  returns TRUE (0000ms, 0439ms total)
T97C4 016:944 JLINK_ReadReg(R15 (PC))  returns 0x080034AC (0000ms, 0439ms total)
T97C4 016:944 JLINK_ReadReg(XPSR)  returns 0x21000000 (0000ms, 0439ms total)
T97C4 016:944 JLINK_ClrBPEx(BPHandle = 0x00000005)  returns 0x00 (0000ms, 0439ms total)
T97C4 016:944 JLINK_ReadMemU32(0xE000ED30, 0x0001 Items, ...) -- CPU_ReadMem(4 bytes @ 0xE000ED30) - Data: 02 00 00 00  returns 0x01 (0000ms, 0439ms total)
T97C4 016:944 JLINK_ReadMemU32(0xE0001028, 0x0001 Items, ...) -- CPU_ReadMem(4 bytes @ 0xE0001028) - Data: 00 00 00 00  returns 0x01 (0001ms, 0440ms total)
T97C4 016:945 JLINK_ReadMemU32(0xE0001038, 0x0001 Items, ...) -- CPU_ReadMem(4 bytes @ 0xE0001038) - Data: 00 02 00 00  returns 0x01 (0000ms, 0440ms total)
T97C4 016:945 JLINK_ReadMemU32(0xE0001048, 0x0001 Items, ...) -- CPU_ReadMem(4 bytes @ 0xE0001048) - Data: 00 00 00 00  returns 0x01 (0001ms, 0441ms total)
T97C4 016:946 JLINK_ReadMemU32(0xE0001058, 0x0001 Items, ...) -- CPU_ReadMem(4 bytes @ 0xE0001058) - Data: 00 00 00 00  returns 0x01 (0000ms, 0441ms total)
T97C4 016:947 JLINK_ReadReg(R0)  returns 0x40022000 (0000ms, 0441ms total)
T97C4 016:947 JLINK_ReadReg(R1)  returns 0x00000008 (0000ms, 0441ms total)
T97C4 016:947 JLINK_ReadReg(R2)  returns 0x00000001 (0000ms, 0441ms total)
T97C4 016:947 JLINK_ReadReg(R3)  returns 0x200002B0 (0000ms, 0441ms total)
T97C4 016:947 JLINK_ReadReg(R4)  returns 0x08007D48 (0000ms, 0441ms total)
T97C4 016:947 JLINK_ReadReg(R5)  returns 0x08007D48 (0000ms, 0441ms total)
T97C4 016:947 JLINK_ReadReg(R6)  returns 0x00000000 (0000ms, 0441ms total)
T97C4 016:947 JLINK_ReadReg(R7)  returns 0x00000000 (0000ms, 0441ms total)
T97C4 016:947 JLINK_ReadReg(R8)  returns 0x00000000 (0000ms, 0441ms total)
T97C4 016:947 JLINK_ReadReg(R9)  returns 0x00000000 (0000ms, 0441ms total)
T97C4 016:947 JLINK_ReadReg(R10)  returns 0x00000000 (0000ms, 0441ms total)
T97C4 016:947 JLINK_ReadReg(R11)  returns 0x00000000 (0000ms, 0441ms total)
T97C4 016:947 JLINK_ReadReg(R12)  returns 0x00000000 (0000ms, 0441ms total)
T97C4 016:947 JLINK_ReadReg(R13 (SP))  returns 0x20000CD0 (0000ms, 0441ms total)
T97C4 016:947 JLINK_ReadReg(R14)  returns 0x08000A0D (0000ms, 0441ms total)
T97C4 016:947 JLINK_ReadReg(R15 (PC))  returns 0x080034AC (0000ms, 0441ms total)
T97C4 016:947 JLINK_ReadReg(XPSR)  returns 0x21000000 (0000ms, 0441ms total)
T97C4 016:947 JLINK_ReadReg(MSP)  returns 0x20000CD0 (0001ms, 0442ms total)
T97C4 016:948 JLINK_ReadReg(PSP)  returns 0x00000000 (0000ms, 0442ms total)
T97C4 016:948 JLINK_ReadReg(CFBP)  returns 0x04000000 (0000ms, 0442ms total)
T97C4 016:948 JLINK_ReadReg(FPSCR)  returns 0x00000000 (0003ms, 0445ms total)
T97C4 016:951 JLINK_ReadReg(FPS0)  returns 0x00000000 (0000ms, 0445ms total)
T97C4 016:951 JLINK_ReadReg(FPS1)  returns 0x00000000 (0000ms, 0445ms total)
T97C4 016:951 JLINK_ReadReg(FPS2)  returns 0x00000000 (0000ms, 0445ms total)
T97C4 016:951 JLINK_ReadReg(FPS3)  returns 0x00000000 (0000ms, 0445ms total)
T97C4 016:951 JLINK_ReadReg(FPS4)  returns 0x00000000 (0000ms, 0445ms total)
T97C4 016:951 JLINK_ReadReg(FPS5)  returns 0x00000000 (0000ms, 0445ms total)
T97C4 016:951 JLINK_ReadReg(FPS6)  returns 0x00000000 (0000ms, 0445ms total)
T97C4 016:951 JLINK_ReadReg(FPS7)  returns 0x00000000 (0000ms, 0445ms total)
T97C4 016:951 JLINK_ReadReg(FPS8)  returns 0x00000000 (0000ms, 0445ms total)
T97C4 016:951 JLINK_ReadReg(FPS9)  returns 0x00000000 (0000ms, 0445ms total)
T97C4 016:951 JLINK_ReadReg(FPS10)  returns 0x00000000 (0000ms, 0445ms total)
T97C4 016:951 JLINK_ReadReg(FPS11)  returns 0x00000000 (0000ms, 0445ms total)
T97C4 016:951 JLINK_ReadReg(FPS12)  returns 0x00000000 (0000ms, 0445ms total)
T97C4 016:951 JLINK_ReadReg(FPS13)  returns 0x00000000 (0000ms, 0445ms total)
T97C4 016:951 JLINK_ReadReg(FPS14)  returns 0x00000000 (0000ms, 0445ms total)
T97C4 016:951 JLINK_ReadReg(FPS15)  returns 0x00000000 (0000ms, 0445ms total)
T97C4 016:951 JLINK_ReadReg(FPS16)  returns 0x00000000 (0001ms, 0446ms total)
T97C4 016:952 JLINK_ReadReg(FPS17)  returns 0x00000000 (0000ms, 0446ms total)
T97C4 016:952 JLINK_ReadReg(FPS18)  returns 0x00000000 (0000ms, 0446ms total)
T97C4 016:952 JLINK_ReadReg(FPS19)  returns 0x00000000 (0000ms, 0446ms total)
T97C4 016:952 JLINK_ReadReg(FPS20)  returns 0x00000000 (0000ms, 0446ms total)
T97C4 016:952 JLINK_ReadReg(FPS21)  returns 0x00000000 (0000ms, 0446ms total)
T97C4 016:952 JLINK_ReadReg(FPS22)  returns 0x00000000 (0000ms, 0446ms total)
